Title: * The title
Date: Mon Feb 26 16:07:01 2024
Plotname: DC transfer characteristic
Flags: real forward
No. Variables: 8
No. Points:          181
Offset:   0.0000000000000000e+000
Command: Linear Technology Corporation LTspice XVII
Variables:
	0	v1	voltage
	1	V(x00)	voltage
	2	V(x01)	voltage
	3	V(x02)	voltage
	4	I(R1)	device_current
	5	I(R2)	device_current
	6	I(R0)	device_current
	7	I(V1)	device_current
Values:
0		-9.000000000000000e-001
	-9.000000000000000e-001
	-8.431370046643093e-001
	-5.686299533569061e-002
	-1.985786467624314e-006
	-1.985786467623871e-006
	-1.985786467623875e-006
	1.985786467624121e-006
1		-8.900000000000000e-001
	-8.900000000000000e-001
	-8.353993199343763e-001
	-5.460068006562352e-002
	-1.909291900487981e-006
	-1.906781219618964e-006
	-1.906781219618970e-006
	1.908195947525241e-006
2		-8.800000000000000e-001
	-8.800000000000000e-001
	-8.275413903809058e-001
	-5.245860961909410e-002
	-1.834457777606508e-006
	-1.831975197173199e-006
	-1.831975197173203e-006
	1.833413770175506e-006
3		-8.700000000000000e-001
	-8.700000000000000e-001
	-8.196533685018520e-001
	-5.034663149814786e-002
	-1.758220928302112e-006
	-1.758220067888612e-006
	-1.758220067888616e-006
	1.758220555017960e-006
4		-8.600000000000000e-001
	-8.600000000000000e-001
	-8.118225682452716e-001
	-4.817743175472844e-002
	-1.685079702758934e-006
	-1.682466628052639e-006
	-1.682466628052639e-006
	1.683990873121310e-006
5		-8.500000000000000e-001
	-8.500000000000000e-001
	-8.038623476428671e-001
	-4.613765235713294e-002
	-1.613803842747898e-006
	-1.611232844099285e-006
	-1.611232844099282e-006
	1.612776555172740e-006
6		-8.400000000000000e-001
	-8.400000000000000e-001
	-7.958159811176584e-001
	-4.418401888234136e-002
	-1.541215334684342e-006
	-1.543007473732573e-006
	-1.543007473732581e-006
	1.541953450303594e-006
7		-8.300000000000000e-001
	-8.300000000000000e-001
	-7.878597370998134e-001
	-4.214026290018666e-002
	-1.471635421399977e-006
	-1.471634818308268e-006
	-1.471634818308265e-006
	1.471635184118681e-006
8		-8.200000000000000e-001
	-8.200000000000000e-001
	-7.797813369179000e-001
	-4.021866308209998e-002
	-1.404528670952597e-006
	-1.404528136846661e-006
	-1.404528136846661e-006
	1.404528470513561e-006
9		-8.099999999999999e-001
	-8.099999999999999e-001
	-7.716577251485125e-001
	-3.834227485148745e-002
	-1.337339526058777e-006
	-1.339000347915353e-006
	-1.339000347915353e-006
	1.337981772227766e-006
10		-7.999999999999999e-001
	-7.999999999999999e-001
	-7.635718918426124e-001
	-3.642810815738737e-002
	-1.272153877766042e-006
	-1.272153248224591e-006
	-1.272153248224596e-006
	1.272153646595386e-006
11		-7.899999999999999e-001
	-7.899999999999999e-001
	-7.553600170579841e-001
	-3.463998294201566e-002
	-1.209708348105751e-006
	-1.209707806612875e-006
	-1.209707806612882e-006
	1.209708159580504e-006
12		-7.799999999999999e-001
	-7.799999999999999e-001
	-7.471446524488051e-001
	-3.285534755119471e-002
	-1.147384769232568e-006
	-1.147384237694047e-006
	-1.147384237694050e-006
	1.147384578792478e-006
13		-7.699999999999999e-001
	-7.699999999999999e-001
	-7.388843984218025e-001
	-3.111560157819732e-002
	-1.086628955834392e-006
	-1.086628310400978e-006
	-1.086628310400980e-006
	1.086628737834236e-006
14		-7.599999999999999e-001
	-7.599999999999999e-001
	-7.305236926093149e-001
	-2.947630739068488e-002
	-1.029380908498833e-006
	-1.029380390294078e-006
	-1.029380390294081e-006
	1.029380743651884e-006
15		-7.499999999999999e-001
	-7.499999999999999e-001
	-7.221872325718518e-001
	-2.781276742814799e-002
	-9.712870598536285e-007
	-9.712857520068147e-007
	-9.712857520068181e-007
	9.712866330162364e-007
16		-7.399999999999999e-001
	-7.399999999999999e-001
	-7.137661466180936e-001
	-2.623385338190624e-002
	-9.161470410113281e-007
	-9.161464451859488e-007
	-9.161464451859512e-007
	9.161468590508934e-007
17		-7.299999999999999e-001
	-7.299999999999999e-001
	-7.052930958489856e-001
	-2.470690415101425e-002
	-8.640039235817674e-007
	-8.628218691316369e-007
	-8.628218691316384e-007
	8.636326613039454e-007
18		-7.199999999999999e-001
	-7.199999999999999e-001
	-6.967831821113163e-001
	-2.321681788868338e-002
	-8.107853259887428e-007
	-8.107846326501527e-007
	-8.107846326501595e-007
	8.107851237953541e-007
19		-7.099999999999999e-001
	-7.099999999999999e-001
	-6.881884655655727e-001
	-2.181153443442710e-002
	-7.617094128438240e-007
	-7.617089051024992e-007
	-7.617089051025021e-007
	7.617092753837683e-007
20		-6.999999999999998e-001
	-6.999999999999998e-001
	-6.795767242775745e-001
	-2.042327572242542e-002
	-7.132279720902149e-007
	-7.132277206770356e-007
	-7.132277206770318e-007
	7.132279025015697e-007
21		-6.899999999999998e-001
	-6.899999999999998e-001
	-6.709052779406645e-001
	-1.909472205933538e-002
	-6.668321190047982e-007
	-6.668315737610744e-007
	-6.668315737610744e-007
	6.668319800133150e-007
22		-6.799999999999998e-001
	-6.799999999999998e-001
	-6.621495049324407e-001
	-1.785049506755897e-002
	-6.233804974046609e-007
	-6.233803079890943e-007
	-6.233803079890988e-007
	6.233804479848568e-007
23		-6.699999999999998e-001
	-6.699999999999998e-001
	-6.533963843636959e-001
	-1.660361563630398e-002
	-5.798369833448794e-007
	-5.798364129352475e-007
	-5.798364129352471e-007
	5.798368474806034e-007
24		-6.599999999999998e-001
	-6.599999999999998e-001
	-6.445347715443652e-001
	-1.546522845563458e-002
	-5.400817135495077e-007
	-5.400813165857786e-007
	-5.400813165857786e-007
	5.400816272096996e-007
25		-6.499999999999998e-001
	-6.499999999999998e-001
	-6.356656910472195e-001
	-1.433430895278018e-002
	-5.005873165040613e-007
	-5.005870087062459e-007
	-5.005870087062508e-007
	5.005872485895276e-007
26		-6.399999999999998e-001
	-6.399999999999998e-001
	-6.267154957584643e-001
	-1.328450424153535e-002
	-4.639258022239148e-007
	-4.639254157505668e-007
	-4.639254157505717e-007
	4.639257250608322e-007
27		-6.299999999999998e-001
	-6.299999999999998e-001
	-6.177137845237243e-001
	-1.228621547627546e-002
	-4.288684118779266e-007
	-4.290628780117262e-007
	-4.290628780117279e-007
	4.289077766371107e-007
28		-6.199999999999998e-001
	-6.199999999999998e-001
	-6.086768299551739e-001
	-1.132317004482586e-002
	-3.954314788416003e-007
	-3.954311184783119e-007
	-3.954311184783119e-007
	3.954314134615872e-007
29		-6.099999999999998e-001
	-6.099999999999998e-001
	-5.995602445807163e-001
	-1.043975541928337e-002
	-3.645803301546531e-007
	-3.645802496778390e-007
	-3.645802496778415e-007
	3.645803153626128e-007
30		-5.999999999999998e-001
	-5.999999999999998e-001
	-5.904261679394004e-001
	-9.573832060599266e-003
	-3.343405409996973e-007
	-3.343402161107889e-007
	-3.343402161107923e-007
	3.343404880255142e-007
31		-5.899999999999998e-001
	-5.899999999999998e-001
	-5.811993234074205e-001
	-8.800676592579250e-003
	-3.073400826584229e-007
	-3.073398504652618e-007
	-3.073398504652606e-007
	3.073400443529887e-007
32		-5.799999999999997e-001
	-5.799999999999997e-001
	-5.719724616740904e-001
	-8.027538325909328e-003
	-2.803403636185707e-007
	-2.803400855304085e-007
	-2.803400855304076e-007
	2.803403233461887e-007
33		-5.699999999999997e-001
	-5.699999999999997e-001
	-5.626524664428179e-001
	-7.347533557181728e-003
	-2.565929185672672e-007
	-2.565927563633956e-007
	-2.565927563634006e-007
	2.565928978634029e-007
34		-5.599999999999997e-001
	-5.599999999999997e-001
	-5.533262491296098e-001
	-6.673750870389815e-003
	-2.330628331873291e-007
	-2.330627165958486e-007
	-2.330627165958518e-007
	2.330628183767712e-007
35		-5.499999999999997e-001
	-5.499999999999997e-001
	-5.439199578083783e-001
	-6.080042191621209e-003
	-2.123291710666118e-007
	-2.123290451976142e-007
	-2.123290451976207e-007
	2.123291571044869e-007
36		-5.399999999999997e-001
	-5.399999999999997e-001
	-5.344996104602563e-001
	-5.500389539743286e-003
	-1.920862930262471e-007
	-1.920862425589887e-007
	-1.920862425589930e-007
	1.920862874753178e-007
37		-5.299999999999997e-001
	-5.299999999999997e-001
	-5.250113635775695e-001
	-4.988636422430099e-003
	-1.742147402466045e-007
	-1.742146476997040e-007
	-1.742146476997073e-007
	1.742147314376163e-007
38		-5.199999999999997e-001
	-5.199999999999997e-001
	-5.155059939284464e-001
	-4.494006071553213e-003
	-1.569410434903556e-007
	-1.569410191922929e-007
	-1.569410191922945e-007
	1.569410412067237e-007
39		-5.099999999999997e-001
	-5.099999999999997e-001
	-5.059413989215612e-001
	-4.058601078438317e-003
	-1.417357406749479e-007
	-1.417356762771135e-007
	-1.417356762771189e-007
	1.417357354819384e-007
40		-4.999999999999997e-001
	-4.999999999999997e-001
	-4.963599510706284e-001
	-3.640048929371292e-003
	-1.271188872772463e-007
	-1.271188734037252e-007
	-1.271188734037258e-007
	1.271188861778466e-007
41		-4.899999999999997e-001
	-4.899999999999997e-001
	-4.867256170320316e-001
	-3.274382967967882e-003
	-1.143490201363359e-007
	-1.143489777353942e-007
	-1.143489777354003e-007
	1.143490172760474e-007
42		-4.799999999999997e-001
	-4.799999999999997e-001
	-4.770767653324612e-001
	-2.923234667538311e-003
	-1.020860815835767e-007
	-1.020860721496855e-007
	-1.020860721496890e-007
	1.020860809614711e-007
43		-4.699999999999996e-001
	-4.699999999999996e-001
	-4.673799697035599e-001
	-2.620030296439667e-003
	-9.149750518964306e-008
	-9.149747875080454e-008
	-9.149747875080575e-008
	9.149750371597137e-008
44		-4.599999999999996e-001
	-4.599999999999996e-001
	-4.576720146926779e-001
	-2.327985307321711e-003
	-8.129860381864774e-008
	-8.129859661481911e-008
	-8.129859661482069e-008
	8.129860342836540e-008
45		-4.499999999999996e-001
	-4.499999999999996e-001
	-4.479203431925733e-001
	-2.079656807426193e-003
	-7.262641038229973e-008
	-7.262639474246471e-008
	-7.262639474246962e-008
	7.262640967051163e-008
46		-4.399999999999996e-001
	-4.399999999999996e-001
	-4.381611141759182e-001
	-1.838885824081342e-003
	-6.421812443993488e-008
	-6.421811871514468e-008
	-6.421811871514765e-008
	6.421812418823470e-008
47		-4.299999999999996e-001
	-4.299999999999996e-001
	-4.283639433643411e-001
	-1.636056635658547e-003
	-5.713486775061978e-008
	-5.713485735630606e-008
	-5.713485735630522e-008
	5.713486730281281e-008
48		-4.199999999999996e-001
	-4.199999999999996e-001
	-4.185588871887083e-001
	-1.441112811291243e-003
	-5.032698204165142e-008
	-5.032697103076002e-008
	-5.032697103076320e-008
	5.032698165329418e-008
49		-4.099999999999996e-001
	-4.099999999999996e-001
	-4.087241863971539e-001
	-1.275813602845661e-003
	-4.455434629998591e-008
	-4.455434281618292e-008
	-4.455434281618540e-008
	4.455434618037032e-008
50		-3.999999999999996e-001
	-3.999999999999996e-001
	-3.988792054930814e-001
	-1.120794506918176e-003
	-3.914072551930733e-008
	-3.914071975431669e-008
	-3.914071975431787e-008
	3.914072535796417e-008
51		-3.899999999999996e-001
	-3.899999999999996e-001
	-3.890127655136904e-001
	-9.872344863091501e-004
	-3.447649782386875e-008
	-3.447649691527640e-008
	-3.447649691527686e-008
	3.447649779928488e-008
52		-3.799999999999996e-001
	-3.799999999999996e-001
	-3.791347271293480e-001
	-8.652728706515793e-004
	-3.021731991428280e-008
	-3.021731703014054e-008
	-3.021731703014053e-008
	3.021731985087591e-008
53		-3.699999999999996e-001
	-3.699999999999996e-001
	-3.692417249258583e-001
	-7.582750741412913e-004
	-2.648070824437557e-008
	-2.648070809631006e-008
	-2.648070809630964e-008
	2.648070824125148e-008
54		-3.599999999999995e-001
	-3.599999999999995e-001
	-3.593367359629888e-001
	-6.632640370108135e-004
	-2.316270572915239e-008
	-2.316270434545611e-008
	-2.316270434545495e-008
	2.316270570547910e-008
55		-3.499999999999995e-001
	-3.499999999999995e-001
	-3.494222798555468e-001
	-5.777201444527752e-004
	-2.019470249850394e-008
	-2.017531503845981e-008
	-2.017531503846022e-008
	2.019438649730744e-008
56		-3.399999999999995e-001
	-3.399999999999995e-001
	-3.394950808300991e-001
	-5.049191699004029e-004
	-1.763293835043537e-008
	-1.763293771129865e-008
	-1.763293771130117e-008
	1.763293834199834e-008
57		-3.299999999999995e-001
	-3.299999999999995e-001
	-3.295620418790547e-001
	-4.379581209448048e-004
	-1.529450401527693e-008
	-1.529450400605790e-008
	-1.529450400605863e-008
	1.529450401516110e-008
58		-3.199999999999995e-001
	-3.199999999999995e-001
	-3.196181958807279e-001
	-3.818041192715199e-004
	-1.333347751111381e-008
	-1.333347722638442e-008
	-1.333347722638646e-008
	1.333347750823982e-008
59		-3.099999999999995e-001
	-3.099999999999995e-001
	-3.096705154866438e-001
	-3.294845133556587e-004
	-1.150635638218832e-008
	-1.150635635795701e-008
	-1.150635635795784e-008
	1.150635638196145e-008
60		-2.999999999999995e-001
	-2.999999999999995e-001
	-2.997135749508617e-001
	-2.864250491378354e-004
	-1.000262106751581e-008
	-1.000262091732294e-008
	-1.000262091732115e-008
	1.000262106616173e-008
61		-2.899999999999995e-001
	-2.899999999999995e-001
	-2.897537296218618e-001
	-2.462703781376769e-004
	-8.600327668884322e-009
	-8.600327531030737e-009
	-8.600327531030870e-009
	8.600327667899276e-009
62		-2.799999999999995e-001
	-2.799999999999995e-001
	-2.797870539032397e-001
	-2.129460967597469e-004
	-7.436567080700628e-009
	-7.436567046502617e-009
	-7.436567046504961e-009
	7.436567080470148e-009
63		-2.699999999999995e-001
	-2.699999999999995e-001
	-2.698170962669989e-001
	-1.829037330005849e-004
	-6.387418722672100e-009
	-6.387418667030372e-009
	-6.387418667031481e-009
	6.387418722375476e-009
64		-2.599999999999995e-001
	-2.599999999999995e-001
	-2.598426751833401e-001
	-1.573248166592892e-004
	-5.494144134413673e-009
	-5.494144128340238e-009
	-5.494144128342904e-009
	5.494144134384453e-009
65		-2.499999999999994e-001
	-2.499999999999994e-001
	-2.498650093172206e-001
	-1.349906827789139e-004
	-4.714184871462468e-009
	-4.714184849657782e-009
	-4.714184849656966e-009
	4.714184871378293e-009
66		-2.399999999999994e-001
	-2.399999999999994e-001
	-2.398844824767421e-001
	-1.155175232572801e-004
	-4.034137370728891e-009
	-4.034137370068364e-009
	-4.034137370070309e-009
	4.034137370729316e-009
67		-2.299999999999994e-001
	-2.299999999999994e-001
	-2.299009924045742e-001
	-9.900759542521542e-005
	-3.457572758858926e-009
	-3.457572750550637e-009
	-3.457572750550839e-009
	3.457572758835522e-009
68		-2.199999999999994e-001
	-2.199999999999994e-001
	-2.199157615210326e-001
	-8.423847896676064e-005
	-2.944115535994599e-009
	-2.941801264563646e-009
	-2.941801264564921e-009
	2.944109268459709e-009
69		-2.099999999999994e-001
	-2.099999999999994e-001
	-2.099278400571349e-001
	-7.215994286452631e-005
	-2.519991030619578e-009
	-2.519991027538221e-009
	-2.519991027539136e-009
	2.519991030614066e-009
70		-1.999999999999994e-001
	-1.999999999999994e-001
	-1.999388492178071e-001
	-6.115078219227918e-005
	-2.135525837961557e-009
	-2.135525837940242e-009
	-2.135525837941693e-009
	2.135525837962453e-009
71		-1.899999999999994e-001
	-1.899999999999994e-001
	-1.899478544063745e-001
	-5.214559362485161e-005
	-1.821043960545725e-009
	-1.821043959347139e-009
	-1.821043959348922e-009
	1.821043960543751e-009
72		-1.799999999999994e-001
	-1.799999999999994e-001
	-1.799559201666671e-001
	-4.407983333219670e-005
	-1.539369075932442e-009
	-1.539369074904340e-009
	-1.539369074905816e-009
	1.539369075932149e-009
73		-1.699999999999994e-001
	-1.699999999999994e-001
	-1.699626091330385e-001
	-3.739086696085850e-005
	-1.305774998320949e-009
	-1.305774998050329e-009
	-1.305774998050468e-009
	1.305774998320945e-009
74		-1.599999999999994e-001
	-1.599999999999994e-001
	-1.599684351680683e-001
	-3.156483193103282e-005
	-1.102316466985588e-009
	-1.102316466648117e-009
	-1.102316466649189e-009
	1.102316466985583e-009
75		-1.499999999999994e-001
	-1.499999999999994e-001
	-1.499733625378576e-001
	-2.663746214177246e-005
	-9.302413906315721e-010
	-9.302413905687102e-010
	-9.302413905694303e-010
	9.302413906314483e-010
76		-1.399999999999994e-001
	-1.399999999999994e-001
	-1.399775645251417e-001
	-2.243547485761285e-005
	-7.834983385948284e-010
	-7.834983384879772e-010
	-7.834983384879743e-010
	7.834983385956182e-010
77		-1.299999999999993e-001
	-1.299999999999993e-001
	-1.299811658928661e-001
	-1.883410713320169e-005
	-6.577303016674503e-010
	-6.577303016504186e-010
	-6.577303016508596e-010
	6.577303016678509e-010
78		-1.199999999999993e-001
	-1.199999999999993e-001
	-1.199841992045597e-001
	-1.580079543965540e-005
	-5.518000868293200e-010
	-5.518000867968096e-010
	-5.518000867967942e-010
	5.518000868294596e-010
79		-1.099999999999994e-001
	-1.099999999999994e-001
	-1.099868145013365e-001
	-1.318549866284200e-005
	-4.604679134350603e-010
	-4.604679134289273e-010
	-4.604679134295524e-010
	4.604679134361932e-010
80		-9.999999999999935e-002
	-9.999999999999935e-002
	-9.998901422635655e-002
	-1.098577364279644e-005
	-3.836484607965402e-010
	-3.836484607864389e-010
	-3.836484607868294e-010
	3.836484607965168e-010
81		-8.999999999999936e-002
	-8.999999999999936e-002
	-8.999090778329286e-002
	-9.092216706502236e-006
	-3.175211012046074e-010
	-3.175211011992415e-010
	-3.175211011992395e-010
	3.175211012049254e-010
82		-7.999999999999936e-002
	-7.999999999999936e-002
	-7.999251739885158e-002
	-7.482601147781815e-006
	-2.613096270135199e-010
	-2.613096270109020e-010
	-2.613096270110979e-010
	2.613096270139826e-010
83		-6.999999999999937e-002
	-6.999999999999937e-002
	-6.999389763152444e-002
	-6.102368474921674e-006
	-2.131087303172432e-010
	-2.131087303160056e-010
	-2.131087303161242e-010
	2.131087303174432e-010
84		-5.999999999999937e-002
	-5.999999999999937e-002
	-5.999508944426268e-002
	-4.910555736684273e-006
	-1.714878907257300e-010
	-1.714878907249525e-010
	-1.714878907248975e-010
	1.714878907258995e-010
85		-4.999999999999936e-002
	-4.999999999999936e-002
	-4.999612723981523e-002
	-3.872760184129110e-006
	-1.352456851878779e-010
	-1.352456851876235e-010
	-1.352456851879984e-010
	1.352456851878834e-010
86		-3.999999999999936e-002
	-3.999999999999936e-002
	-3.999703947487972e-002
	-2.960525119648739e-006
	-1.033883404306334e-010
	-1.033883404304067e-010
	-1.033883404302919e-010
	1.033883404306038e-010
87		-2.999999999999936e-002
	-2.999999999999936e-002
	-2.999786254050260e-002
	-2.137459496750979e-006
	-7.464499748363587e-011
	-7.464499748359367e-011
	-7.464499748388648e-011
	7.464499748371824e-011
88		-1.999999999999936e-002
	-1.999999999999936e-002
	-1.999860963351241e-002
	-1.390366486950527e-006
	-4.855479277036020e-011
	-4.855479277031942e-011
	-4.855479277038189e-011
	4.855479277037494e-011
89		-9.999999999999358e-003
	-9.999999999999358e-003
	-9.999332256011063e-003
	-6.677439882951089e-007
	-2.380761839211522e-011
	-2.331915453917963e-011
	-2.331915453919860e-011
	2.380755050329783e-011
90		6.418476861114186e-016
	6.418476861114186e-016
	-1.319366131052801e-008
	1.319366195237570e-008
	-6.272010685861162e-017
	4.607529942585886e-013
	4.607529942585886e-013
	-1.525402015273300e-024
91		1.000000000000064e-002
	1.000000000000064e-002
	9.999319466476841e-003
	6.805335238012070e-007
	2.380755630742704e-011
	2.376579450925633e-011
	2.376579450924764e-011
	-2.380755050319195e-011
92		2.000000000000064e-002
	2.000000000000064e-002
	1.999862334799414e-002
	1.376652006507654e-006
	4.855486199910621e-011
	4.807585159753784e-011
	4.807585159745184e-011
	-4.855479277037494e-011
93		3.000000000000064e-002
	3.000000000000064e-002
